(000.000000) can0 1401557F#37030000000000CE
(000.361063) can0 1401557D#B2020000000000D7
(000.999798) can0 1401557F#38030000000000CF
(001.390408) can0 1401557D#B3020000000000D8
(001.999934) can0 1401557F#39030000000000D0
(002.304076) can0 1401557D#B4020000000000D9
(002.999842) can0 1401557F#3A030000000000D1
(003.274628) can0 1401557D#B5020000000000DA
(003.999426) can0 1401557F#3B030000000000D2
(004.359796) can0 1401557D#B6020000000000DB
(004.998577) can0 1401557F#3C030000000000D3
(005.376203) can0 1401557D#B7020000000000DC
(005.998998) can0 1401557F#3D030000000000D4
(006.305176) can0 1401557D#B8020000000000DD
(006.999295) can0 1401557F#3E030000000000D5
(007.329223) can0 1401557D#B9020000000000DE
(007.457402) can0 1401557E#01000000080000C0
(007.459726) can0 1E01FEFF#C0
(007.461185) can0 1E017FFE#F68E010000000880
(007.461226) can0 1E017FFE#0000000000000020
(007.461240) can0 1E017FFE#0000000000000000
(007.461251) can0 1E017FFE#0000000000000020
(007.461267) can0 1E017FFE#0000000000000000
(007.461301) can0 1E017FFE#0000000000000020
(007.461327) can0 1E017FFE#0040
(007.999472) can0 1401557F#3F030000000000D6
(008.345837) can0 1401557D#BA020000000000DF
(008.456558) can0 1401557E#02000000080000C1
(008.999218) can0 1401557F#40030000000000D7
(009.274799) can0 1401557D#BB020000000000C0
(009.456524) can0 1401557E#03000000080000C2
(009.999492) can0 1401557F#41030000000000D8
(010.298901) can0 1401557D#BC020000000000C1
(010.456464) can0 1401557E#04000000080000C3
(010.999096) can0 1401557F#42030000000000D9
(011.425225) can0 1401557D#BD020000000000C2
(011.456062) can0 1401557E#05000000080000C4
(011.999243) can0 1401557F#43030000000000DA
(012.445103) can0 1401557D#BE020000000000C3
(012.456812) can0 1401557E#06000000080000C5
(012.999212) can0 1401557F#44030000000000DB
(013.421558) can0 1401557D#BF020000000000C4
(013.456015) can0 1401557E#07000000080000C6
(013.462894) can0 1428FDFE#99FE7E6E6F646580
(013.462954) can0 1428FDFE#2E62696E60
(013.671572) can0 10287EFD#00C0
(013.671649) can0 1401557D#BF020000180000C5
(013.671666) can0 103FFF7D#814E24626F6F7497
(013.671681) can0 103FFF7D#426567696E466937
(013.671700) can0 103FFF7D#726D776172655517
(013.671716) can0 103FFF7D#7064617465202D37
(013.671732) can0 103FFF7D#3E204552524F5217
(013.671750) can0 103FFF7D#5F4F4B77
(013.773297) can0 102DFEFD#CCFE6E6F64652E98
(013.773348) can0 102DFEFD#62696E78
(013.773366) can0 103FFF7D#B5D124626F6F7498
(013.773378) can0 103FFF7D#476574496E666F38
(013.773393) can0 103FFF7D#2072657175657318
(013.773419) can0 103FFF7D#742073656E7478
(013.775171) can0 102D7DFE#2FCC10B500000098
(013.775246) can0 102D7DFE#00000978
(013.816321) can0 142DFDFE#CCFE6E6F64652E80
(013.816383) can0 142DFDFE#62696E60
(013.998833) can0 1401557F#45030000000000DC
(014.456211) can0 1401557E#08000000080000C7
(014.694268) can0 103FFF7D#ACD244626F6F7499
(014.694345) can0 103FFF7D#476574496E666F39
(014.694362) can0 103FFF7D#2074696D656F7519
(014.694375) can0 103FFF7D#7479
(014.999461) can0 1401557F#46030000000000DD
(015.316390) can0 1401557D#C1020000000000C7
(015.456052) can0 1401557E#09000000080000C8
(015.999472) can0 1401557F#47030000000000DE
(016.340207) can0 1401557D#C2020000000000C8
(016.455887) can0 1401557E#0A000000080000C9
(016.999238) can0 1401557F#48030000000000DF
(017.261892) can0 1401557D#C3020000000000C9
(017.456332) can0 1401557E#0B000000080000CA
(017.999922) can0 1401557F#49030000000000C0
(018.286230) can0 1401557D#C4020000000000CA
(018.456927) can0 1401557E#0C000000080000CB
(018.999369) can0 1401557F#4A030000000000C1
(019.305368) can0 1401557D#C5020000000000CB
(019.456301) can0 1401557E#0D000000080000CC
(019.999731) can0 1401557F#4B030000000000C2
(020.333839) can0 1401557D#C6020000000000CC
(020.456842) can0 1401557E#0E000000080000CD
(020.999067) can0 1401557F#4C030000000000C3
(021.245508) can0 1401557D#C7020000000000CD
(021.456017) can0 1401557E#0F000000080000CE
(021.998800) can0 1401557F#4D030000000000C4
(022.274241) can0 1401557D#C8020000000000CE
(022.456853) can0 1401557E#10000000080000CF
(022.999604) can0 1401557F#4E030000000000C5
(023.303679) can0 1401557D#C9020000000000CF
(023.456878) can0 1401557E#11000000080000D0
(023.999275) can0 1401557F#4F030000000000C6
(024.221497) can0 1401557D#CA020000000000D0
(024.456426) can0 1401557E#12000000080000D1
(024.998759) can0 1401557F#50030000000000C7
(025.249125) can0 1401557D#CB020000000000D1
(025.456598) can0 1401557E#13000000080000D2
(025.999165) can0 1401557F#51030000000000C8
(026.273118) can0 1401557D#CC020000000000D2
(026.456772) can0 1401557E#14000000080000D3
(027.000157) can0 1401557F#52030000000000C9
(027.456884) can0 1401557E#15000000080000D4
(027.999455) can0 1401557F#53030000000000CA
(028.321151) can0 1401557D#CE020000000000D4
(028.456016) can0 1401557E#16000000080000D5
(028.999396) can0 1401557F#54030000000000CB
(029.242576) can0 1401557D#CF020000000000D5
(029.456703) can0 1401557E#17000000080000D6
(030.000076) can0 1401557F#55030000000000CC
(030.266732) can0 1401557D#D0020000000000D6
(030.456139) can0 1401557E#18000000080000D7
(030.999569) can0 1401557F#56030000000000CD
(031.290667) can0 1401557D#D1020000000000D7
(031.456564) can0 1401557E#19000000080000D8
(031.999805) can0 1401557F#57030000000000CE
(032.212291) can0 1401557D#D2020000000000D8
(032.455945) can0 1401557E#1A000000080000D9
(032.999584) can0 1401557F#58030000000000CF
(033.236354) can0 1401557D#D3020000000000D9
(033.457126) can0 1401557E#1B000000080000DA
(033.999117) can0 1401557F#59030000000000D0
(034.260213) can0 1401557D#D4020000000000DA
(034.456645) can0 1401557E#1C000000080000DB
(034.999398) can0 1401557F#5A030000000000D1
(035.284282) can0 1401557D#D5020000000000DB
(035.458870) can0 1401557E#1D000000080000DC
(035.994899) can0 1401557F#5B030000000000D2
(036.307519) can0 1401557D#D6020000000000DC
(036.456799) can0 1401557E#1E000000080000DD
(036.995366) can0 1401557F#5C030000000000D3
(037.229996) can0 1401557D#D7020000000000DD
(037.456637) can0 1401557E#1F000000080000DE
(037.997181) can0 1401557F#5D030000000000D4
(038.253937) can0 1401557D#D8020000000000DE
(038.456349) can0 1401557E#20000000080000DF
(038.997175) can0 1401557F#5E030000000000D5
(039.175460) can0 1401557D#D9020000000000DF
(039.456362) can0 1401557E#21000000080000C0
(039.997197) can0 1401557F#5F030000000000D6
(040.199445) can0 1401557D#DA020000000000C0
(040.456274) can0 1401557E#22000000080000C1
(040.997535) can0 1401557F#60030000000000D7
(041.146202) can0 1401557D#DB020000000000C1
(041.456281) can0 1401557E#23000000080000C2
(041.997226) can0 1401557F#61030000000000D8
(042.456110) can0 1401557E#24000000080000C3
(042.997490) can0 1401557F#62030000000000D9
(043.456624) can0 1401557E#25000000080000C4
(043.997155) can0 1401557F#63030000000000DA
(044.193196) can0 1401557D#DE020000000000C4
(044.197119) can0 1E01FDFF#C3
(044.391468) can0 10017FFD#6A7DDE0200000083
(044.391528) can0 10017FFD#0000010000000023
(044.391543) can0 10017FFD#0000000000000003
(044.391555) can0 10017FFD#000000010052FF23
(044.391571) can0 10017FFD#6D06728552515003
(044.391584) can0 10017FFD#4602670000000023
(044.391598) can0 10017FFD#00636F2E726C2E03
(044.391611) can0 10017FFD#626F6F746C6F6123
(044.456137) can0 1401557E#26000000080000C5
(044.492562) can0 10017FFD#64657243
(044.997162) can0 1401557F#64030000000000DB
(045.319516) can0 1401557D#DF020000000000C5
(045.456677) can0 1401557E#27000000080000C6
(045.997471) can0 1401557F#65030000000000DC
(046.236168) can0 1401557D#E0020000000000C6
(046.455950) can0 1401557E#28000000080000C7
(046.997011) can0 1401557F#66030000000000DD
(047.265243) can0 1401557D#E1020000000000C7
(047.997633) can0 1401557F#67030000000000DE
(048.289096) can0 1401557D#E2020000000000C8
(048.996418) can0 1401557F#68030000000000DF
(049.210980) can0 1401557D#E3020000000000C9
(049.997288) can0 1401557F#69030000000000C0
(050.125196) can0 1401557D#E4020000000000CA
(050.747599) can0 1401557E#01000000080000C0
(050.756692) can0 1E01FEFF#C1
(050.757939) can0 1E017FFE#F68E010000000881
(050.757995) can0 1E017FFE#0000000000000021
(050.758012) can0 1E017FFE#0000000000000001
(050.758039) can0 1E017FFE#0000000000000021
(050.758054) can0 1E017FFE#0000000000000001
(050.758068) can0 1E017FFE#0000000000000021
(050.758084) can0 1E017FFE#0041
(050.996710) can0 1401557F#6A030000000000C1
(051.156338) can0 1401557D#E5020000000000CB
(051.748243) can0 1401557E#02000000080000C1
(051.997064) can0 1401557F#6B030000000000C2
(052.180551) can0 1401557D#E6020000000000CC
(052.747575) can0 1401557E#03000000080000C2
(052.997578) can0 1401557F#6C030000000000C3
(053.097926) can0 1401557D#E7020000000000CD
(053.747986) can0 1401557E#04000000080000C3
(053.996983) can0 1401557F#6D030000000000C4
(054.126015) can0 1401557D#E8020000000000CE
(054.748147) can0 1401557E#05000000080000C4
(054.996897) can0 1401557F#6E030000000000C5
(055.146821) can0 1401557D#E9020000000000CF
(055.747955) can0 1401557E#06000000080000C5
(055.997859) can0 1401557F#6F030000000000C6
(056.174372) can0 1401557D#EA020000000000D0
(056.748200) can0 1401557E#07000000080000C6
(056.760352) can0 1428FDFE#99FE7E6E6F646580
(056.760754) can0 1428FDFE#2E62696E60
(056.884433) can0 10287EFD#00C0
(056.884505) can0 1401557D#EA020000180000D1
(056.884527) can0 103FFF7D#814E24626F6F749A
(056.884547) can0 103FFF7D#426567696E46693A
(056.884562) can0 103FFF7D#726D77617265551A
(056.884575) can0 103FFF7D#7064617465202D3A
(056.884586) can0 103FFF7D#3E204552524F521A
(056.884600) can0 103FFF7D#5F4F4B7A
(056.986437) can0 102DFEFD#CCFE6E6F64652E99
(056.986486) can0 102DFEFD#62696E79
(056.986502) can0 103FFF7D#B5D124626F6F749B
(056.986513) can0 103FFF7D#476574496E666F3B
(056.986523) can0 103FFF7D#207265717565731B
(056.986534) can0 103FFF7D#742073656E747B
(056.987621) can0 102D7DFE#2FCC10B500000099
(056.987659) can0 102D7DFE#00000979
(056.998057) can0 1401557F#70030000000000C7
(057.012498) can0 142DFDFE#CCFE6E6F64652E80
(057.012551) can0 142DFDFE#62696E60
(057.296218) can0 103FFF7D#524F4D206572613D
(057.296281) can0 103FFF7D#736520737461721D
(057.296297) can0 103FFF7D#747D
(057.747690) can0 1401557E#08000000080000C7
(057.998946) can0 1401557F#71030000000000C8
(058.316351) can0 103FFF7D#717565737420731F
(058.316413) can0 103FFF7D#656E7420286F663F
(058.316428) can0 103FFF7D#667365743D30295F
(058.748095) can0 1401557E#09000000080000C8
(058.998258) can0 1401557F#72030000000000C9
(059.136404) can0 1401557D#EC020000180000D3
(059.136479) can0 103FFF7D#D09344626F6F7480
(059.136495) can0 103FFF7D#5265616420746920
(059.136513) can0 103FFF7D#6D656F757440
(059.748351) can0 1401557E#0A000000080000C9
(059.998903) can0 1401557F#73030000000000CA
(060.057678) can0 1401557D#ED020000000000D4
(060.748020) can0 1401557E#0B000000080000CA
(060.998072) can0 1401557F#74030000000000CB
(061.081670) can0 1401557D#EE020000000000D5
(061.748272) can0 1401557E#0C000000080000CB
(061.998641) can0 1401557F#75030000000000CC
(062.108891) can0 1401557D#EF020000000000D6
(062.747810) can0 1401557E#0D000000080000CC
(062.998759) can0 1401557F#76030000000000CD
(063.134868) can0 1401557D#F0020000000000D7
(063.748078) can0 1401557E#0E000000080000CD
(063.998707) can0 1401557F#77030000000000CE
(064.050738) can0 1401557D#F1020000000000D8
(064.748412) can0 1401557E#0F000000080000CE
(064.998019) can0 1401557F#78030000000000CF
(065.074779) can0 1401557D#F2020000000000D9
(065.748312) can0 1401557E#10000000080000CF
(065.998642) can0 1401557F#79030000000000D0
(066.098855) can0 1401557D#F3020000000000DA
(066.748394) can0 1401557E#11000000080000D0
(066.999315) can0 1401557F#7A030000000000D1
(067.122747) can0 1401557D#F4020000000000DB
(067.748260) can0 1401557E#12000000080000D1
(067.998740) can0 1401557F#7B030000000000D2
(068.045298) can0 1401557D#F5020000000000DC
(068.997993) can0 1401557F#7C030000000000D3
(069.069279) can0 1401557D#F6020000000000DD
(069.997739) can0 1401557F#7D030000000000D4
(070.100953) can0 1401557D#F7020000000000DE
(070.924848) can0 1401557E#01000000080000C0
(070.928593) can0 1E01FEFF#C2
(070.929756) can0 1E017FFE#F68E010000000882
(070.929815) can0 1E017FFE#0000000000000022
(070.929832) can0 1E017FFE#0000000000000002
(070.929847) can0 1E017FFE#0000000000000022
(070.929863) can0 1E017FFE#0000000000000002
(070.929878) can0 1E017FFE#0000000000000022
(070.929895) can0 1E017FFE#0042
(070.998198) can0 1401557F#7E030000000000D5
(071.117246) can0 1401557D#F8020000000000DF
(071.925306) can0 1401557E#02000000080000C1
(071.998283) can0 1401557F#7F030000000000D6
(072.037123) can0 1401557D#F9020000000000C0
(072.925007) can0 1401557E#03000000080000C2
(072.997913) can0 1401557F#80030000000000D7
(073.067311) can0 1401557D#FA020000000000C1
(073.924937) can0 1401557E#04000000080000C3
(073.997919) can0 1401557F#81030000000000D8
(074.086906) can0 1401557D#FB020000000000C2
(074.925277) can0 1401557E#05000000080000C4
(074.998868) can0 1401557F#82030000000000D9
(075.008735) can0 1401557D#FC020000000000C3
(075.925543) can0 1401557E#06000000080000C5
(076.000894) can0 1401557F#83030000000000DA
(076.035132) can0 1401557D#FD020000000000C4
(076.925867) can0 1401557E#07000000080000C6
(076.940297) can0 1428FDFE#99FE7E6E6F646580
(076.940356) can0 1428FDFE#2E62696E60
(077.001542) can0 1401557F#84030000000000DB
(077.054948) can0 1401557D#FE020000000000C5
(077.160191) can0 10287EFD#00C0
(077.160250) can0 1401557D#FE020000180000C6
(077.160266) can0 103FFF7D#814E24626F6F7481
(077.160279) can0 103FFF7D#426567696E466921
(077.160292) can0 103FFF7D#726D776172655501
(077.160307) can0 103FFF7D#7064617465202D21
(077.160324) can0 103FFF7D#3E204552524F5201
(077.160367) can0 103FFF7D#5F4F4B61
(077.262127) can0 102DFEFD#CCFE6E6F64652E9B
(077.262173) can0 102DFEFD#62696E7B
(077.262188) can0 103FFF7D#B5D124626F6F7482
(077.262200) can0 103FFF7D#476574496E666F22
(077.262212) can0 103FFF7D#2072657175657302
(077.262228) can0 103FFF7D#742073656E7462
(077.263944) can0 102D7DFE#2FCC10B50000009B
(077.263992) can0 102D7DFE#0000097B
(077.293768) can0 142DFDFE#CCFE6E6F64652E80
(077.293818) can0 142DFDFE#62696E60
(077.371783) can0 103FFF7D#2073697A653D3403
(077.371845) can0 103FFF7D#3633353220657223
(077.371862) can0 103FFF7D#723D3020666C6103
(077.371878) can0 103FFF7D#67733D3963
(077.371893) can0 103FFF7D#338624626F6F7484
(077.371908) can0 103FFF7D#524F4D2065726124
(077.371922) can0 103FFF7D#7365207374617204
(077.466176) can0 103FFF7D#0C9624626F6F7483
(077.466232) can0 103FFF7D#476574496E666F23
(077.925113) can0 1401557E#08000000080000C7
(078.000787) can0 1401557F#85030000000000DC
(078.491544) can0 103FFF7D#736520646F6E6545
(078.491641) can0 1030FEFD#2DC800000000009C
(078.491662) can0 103FFF7D#FE5124626F6F7486
(078.491681) can0 103FFF7D#5265616420726526
(078.491701) can0 103FFF7D#7175657374207306
(078.491721) can0 103FFF7D#656E7420286F6626
(078.491742) can0 103FFF7D#4CA924626F6F7485
(078.491767) can0 103FFF7D#524F4D2065726125
(078.592913) can0 1030FEFD#6E6F64652E62693C
(078.593014) can0 1030FEFD#6E5C
(078.593096) can0 103FFF7D#667365743D302946
(078.598896) can0 10307DFE#C94300000050009C
(078.599539) can0 10307DFE#20F5EE00088DCA3C
(078.599574) can0 10307DFE#000891CA0008951C
(078.599589) can0 10307DFE#CA000899CA00083C
(078.599602) can0 10307DFE#9DCA00080000001C
(078.599615) can0 10307DFE#000000000000003C
(078.599628) can0 10307DFE#000000000000A11C
(078.599640) can0 10307DFE#CA0008A5CA00083C
(078.599653) can0 10307DFE#00000000A9CA001C
(078.599665) can0 10307DFE#08ADCA00083DEF3C
(078.599679) can0 10307DFE#00083DEF00083D1C
(078.599691) can0 10307DFE#EF00083DEF00083C
(078.599705) can0 10307DFE#3DEF00083DEF001C
(078.599722) can0 10307DFE#083DEF00083DEF3C
(078.599738) can0 10307DFE#00083DEF00083D1C
(078.599750) can0 10307DFE#EF00083DEF00083C
(078.599765) can0 10307DFE#B1CA00083DEF001C
(078.599779) can0 10307DFE#083DEF00083DEF3C
(078.599792) can0 10307DFE#00083DEF00083D1C
(078.599804) can0 10307DFE#EF00083DEF00083C
(078.599823) can0 10307DFE#3DEF00083DEF001C
(078.599836) can0 10307DFE#083DEF00083DEF3C
(078.599847) can0 10307DFE#00083DEF00083D1C
(078.599862) can0 10307DFE#EF00083DEF00083C
(078.599873) can0 10307DFE#BDCA00083DEF001C
(078.599884) can0 10307DFE#083DEF00083DEF3C
(078.599894) can0 10307DFE#00083DEF00083D1C
(078.599904) can0 10307DFE#EF00083DEF00083C
(078.599914) can0 10307DFE#3DEF00083DEF001C
(078.599924) can0 10307DFE#083DEF00083DEF3C
(078.599936) can0 10307DFE#00083DEF00083D1C
(078.599948) can0 10307DFE#EF00083DEF00083C
(078.599959) can0 10307DFE#3DEF00083DEF001C
(078.599976) can0 10307DFE#083DEF00083DEF3C
(078.599987) can0 10307DFE#000800000000001C
(078.600000) can0 10307DFE#000000000000003C
(078.600011) can0 10307DFE#000000000000001C
(078.600022) can0 10307DFE#007C
(078.925062) can0 1401557E#09000000080000C8
(079.001422) can0 1401557F#86030000000000DD
(079.214975) can0 1401557D#FF020000180000C7
(079.514516) can0 103FFF7D#D09344626F6F7487
(079.514584) can0 103FFF7D#5265616420746927
(079.514600) can0 103FFF7D#6D656F757447
(079.925456) can0 1401557E#0A000000080000C9
(079.993365) can0 1401557F#87030000000000DE
(080.026263) can0 1401557D#00030000000000C8
(080.992924) can0 1401557F#88030000000000DF
(081.058384) can0 1401557D#01030000000000C9
(081.994643) can0 1401557F#89030000000000C0
(082.082233) can0 1401557D#02030000000000CA
(082.957405) can0 1401557D#03030000000000CB
(082.995063) can0 1401557F#8A030000000000C1
(083.995067) can0 1401557F#8B030000000000C2
(084.019947) can0 1401557D#04030000000000CC
(084.949282) can0 1401557D#05030000000000CD
(084.994975) can0 1401557F#8C030000000000C3
(085.973377) can0 1401557D#06030000000000CE
(085.995047) can0 1401557F#8D030000000000C4
(086.995248) can0 1401557F#8E030000000000C5
(086.996202) can0 1401557D#07030000000000CF
(087.994627) can0 1401557F#8F030000000000C6
(088.017141) can0 1401557D#08030000000000D0
