(000.000000) slcan0 1401557F#35030000000000CC
(000.181544) slcan0 1401557D#B0020000000000D5
(000.924176) slcan0 1401557F#36030000000000CD
(001.177534) slcan0 1401557D#B1020000000000D6
(001.948166) slcan0 1401557F#37030000000000CE
(002.174492) slcan0 1401557D#B2020000000000D7
(002.973074) slcan0 1401557F#38030000000000CF
(003.171469) slcan0 1401557D#B3020000000000D8
(003.996143) slcan0 1401557F#39030000000000D0
(004.167439) slcan0 1401557D#B4020000000000D9
(005.020137) slcan0 1401557F#3A030000000000D1
(005.163430) slcan0 1401557D#B5020000000000DA
(005.941714) slcan0 1401557F#3B030000000000D2
(006.160379) slcan0 1401557D#B6020000000000DB
(006.965731) slcan0 1401557F#3C030000000000D3
(007.156366) slcan0 1401557D#B7020000000000DC
(007.899772) slcan0 1401557F#3D030000000000D4
(008.153321) slcan0 1401557D#B8020000000000DD
(008.911528) slcan0 1401557F#3E030000000000D5
(009.149310) slcan0 1401557D#B9020000000000DE
(009.423847) slcan0 1401557E#01000000080000C0
(009.423973) slcan0 1E01FEFF#C0
(009.424067) slcan0 1E017FFE#F68E010000000880
(009.424192) slcan0 1E017FFE#0000000000000020
(009.424280) slcan0 1E017FFE#0000000000000000
(009.424365) slcan0 1E017FFE#0000000000000020
(009.424447) slcan0 1E017FFE#0000000000000000
(009.424532) slcan0 1E017FFE#0000000000000020
(009.525065) slcan0 1E017FFE#0040
(009.935697) slcan0 1401557F#3F030000000000D6
(010.146265) slcan0 1401557D#BA020000000000DF
(010.447381) slcan0 1401557E#02000000080000C1
(010.959360) slcan0 1401557F#40030000000000D7
(011.143262) slcan0 1401557D#BB020000000000C0
(011.982311) slcan0 1401557F#41030000000000D8
(012.139165) slcan0 1401557D#BC020000000000C1
(013.135174) slcan0 1401557D#BD020000000000C2
(013.928561) slcan0 1401557F#43030000000000DA
(014.132108) slcan0 1401557D#BE020000000000C3
(014.440955) slcan0 1401557E#06000000080000C5
(014.953047) slcan0 1401557F#44030000000000DB
(015.128108) slcan0 1401557D#BF020000000000C4
(015.464996) slcan0 1401557E#07000000080000C6
(015.465044) slcan0 1428FDFE#99FE7E6E6F646580
(015.465087) slcan0 1428FDFE#2E62696E60
(015.467100) slcan0 10287EFD#00C0
(015.467169) slcan0 1401557D#BF020000180000C5
(015.467211) slcan0 103FFF7D#814E24626F6F7497
(015.468097) slcan0 103FFF7D#426567696E466937
(015.469102) slcan0 103FFF7D#726D776172655517
(015.469168) slcan0 103FFF7D#7064617465202D37
(015.469231) slcan0 103FFF7D#3E204552524F5217
(015.469237) slcan0 103FFF7D#5F4F4B77
(015.469272) slcan0 102DFEFD#CCFE6E6F64652E98
(015.469364) slcan0 102DFEFD#62696E78
(015.469480) slcan0 103FFF7D#B5D124626F6F7498
(015.470101) slcan0 103FFF7D#476574496E666F38
(015.470167) slcan0 103FFF7D#2072657175657318
(015.470173) slcan0 103FFF7D#742073656E7478
(015.977052) slcan0 1401557F#45030000000000DC
(016.126050) slcan0 1401557D#C0020000180000C6
(016.386295) slcan0 1401557E#08000000080000C7
(016.463076) slcan0 103FFF7D#ACD244626F6F7499
(016.464075) slcan0 103FFF7D#476574496E666F39
(016.464140) slcan0 103FFF7D#2074696D656F7519
(016.464147) slcan0 103FFF7D#7479
(017.000656) slcan0 1401557F#46030000000000DD
(017.121085) slcan0 1401557D#C1020000000000C7
(017.410382) slcan0 1401557E#09000000080000C8
(017.922527) slcan0 1401557F#47030000000000DE
(018.118018) slcan0 1401557D#C2020000000000C8
(018.434764) slcan0 1401557E#0A000000080000C9
(018.946479) slcan0 1401557F#48030000000000DF
(019.114027) slcan0 1401557D#C3020000000000C9
(019.458437) slcan0 1401557E#0B000000080000CA
(019.970958) slcan0 1401557F#49030000000000C0
(020.110959) slcan0 1401557D#C4020000000000CA
(020.380085) slcan0 1401557E#0C000000080000CB
(020.900825) slcan0 1401557F#4A030000000000C1
(021.107934) slcan0 1401557D#C5020000000000CB
(021.404059) slcan0 1401557E#0D000000080000CC
(021.916031) slcan0 1401557F#4B030000000000C2
(022.103908) slcan0 1401557D#C6020000000000CC
(022.428040) slcan0 1401557E#0E000000080000CD
(022.940076) slcan0 1401557F#4C030000000000C3
(023.099923) slcan0 1401557D#C7020000000000CD
(023.452103) slcan0 1401557E#0F000000080000CE
(023.964065) slcan0 1401557F#4D030000000000C4
(024.096849) slcan0 1401557D#C8020000000000CE
(024.373686) slcan0 1401557E#10000000080000CF
(024.988044) slcan0 1401557F#4E030000000000C5
(025.092868) slcan0 1401557D#C9020000000000CF
(025.397640) slcan0 1401557E#11000000080000D0
(026.012148) slcan0 1401557F#4F030000000000C6
(026.089792) slcan0 1401557D#CA020000000000D0
(026.421659) slcan0 1401557E#12000000080000D1
(026.933645) slcan0 1401557F#50030000000000C7
(027.085813) slcan0 1401557D#CB020000000000D1
(027.365893) slcan0 1401557E#13000000080000D2
(027.957631) slcan0 1401557F#51030000000000C8
(028.082738) slcan0 1401557D#CC020000000000D2
(028.980612) slcan0 1401557F#52030000000000C9
(029.078722) slcan0 1401557D#CD020000000000D3
(029.390971) slcan0 1401557E#15000000080000D4
(030.005330) slcan0 1401557F#53030000000000CA
(030.075690) slcan0 1401557D#CE020000000000D4
(030.414947) slcan0 1401557E#16000000080000D5
(030.927189) slcan0 1401557F#54030000000000CB
(031.071670) slcan0 1401557D#CF020000000000D5
(031.438947) slcan0 1401557E#17000000080000D6
(031.950979) slcan0 1401557F#55030000000000CC
(032.068606) slcan0 1401557D#D0020000000000D6
(032.462949) slcan0 1401557E#18000000080000D7
(032.900505) slcan0 1401557F#56030000000000CD
(033.064612) slcan0 1401557D#D1020000000000D7
(033.384541) slcan0 1401557E#19000000080000D8
(033.999268) slcan0 1401557F#57030000000000CE
(034.061571) slcan0 1401557D#D2020000000000D8
(034.408830) slcan0 1401557E#1A000000080000D9
(034.920866) slcan0 1401557F#58030000000000CF
(035.057592) slcan0 1401557D#D3020000000000D9
(035.432852) slcan0 1401557E#1B000000080000DA
(035.944804) slcan0 1401557F#59030000000000D0
(036.054513) slcan0 1401557D#D4020000000000DA
(036.455811) slcan0 1401557E#1C000000080000DB
(036.968781) slcan0 1401557F#5A030000000000D1
(037.050534) slcan0 1401557D#D5020000000000DB
(037.480824) slcan0 1401557E#1D000000080000DC
(037.992865) slcan0 1401557F#5B030000000000D2
(038.047492) slcan0 1401557D#D6020000000000DC
(038.402332) slcan0 1401557E#1E000000080000DD
(039.016926) slcan0 1401557F#5C030000000000D3
(039.043475) slcan0 1401557D#D7020000000000DD
(039.357548) slcan0 1401557E#1F000000080000DE
(039.938420) slcan0 1401557F#5D030000000000D4
(040.039454) slcan0 1401557D#D8020000000000DE
(040.450430) slcan0 1401557E#20000000080000DF
(040.962426) slcan0 1401557F#5E030000000000D5
(041.036419) slcan0 1401557D#D9020000000000DF
(041.371762) slcan0 1401557E#21000000080000C0
(041.986375) slcan0 1401557F#5F030000000000D6
(042.032390) slcan0 1401557D#DA020000000000C0
(042.396065) slcan0 1401557E#22000000080000C1
(043.010408) slcan0 1401557F#60030000000000D7
(043.029368) slcan0 1401557D#DB020000000000C1
(043.419995) slcan0 1401557E#23000000080000C2
(043.932066) slcan0 1401557F#61030000000000D8
(044.025348) slcan0 1401557D#DC020000000000C2
(044.903908) slcan0 1401557F#62030000000000D9
(045.022291) slcan0 1401557D#DD020000000000C3
(045.467786) slcan0 1401557E#25000000080000C4
(045.980053) slcan0 1401557F#63030000000000DA
(046.019237) slcan0 1401557D#DE020000000000C4
(046.184494) slcan0 1E01FDFF#C3
(046.186254) slcan0 10017FFD#6A7DDE0200000083
(046.186384) slcan0 10017FFD#0000010000000023
(046.186406) slcan0 10017FFD#0000000000000003
(046.186412) slcan0 10017FFD#000000010052FF23
(046.187265) slcan0 10017FFD#6D06728552515003
(046.187322) slcan0 10017FFD#4602670000000023
(046.187374) slcan0 10017FFD#00636F2E726C2E03
(046.187380) slcan0 10017FFD#626F6F746C6F6123
(046.188226) slcan0 10017FFD#64657243
(047.004153) slcan0 1401557F#64030000000000DB
(047.016224) slcan0 1401557D#DF020000000000C5
(047.413182) slcan0 1401557E#27000000080000C6
(047.925698) slcan0 1401557F#65030000000000DC
(048.011203) slcan0 1401557D#E0020000000000C6
(048.437625) slcan0 1401557E#28000000080000C7
(048.949667) slcan0 1401557F#66030000000000DD
(049.008175) slcan0 1401557D#E1020000000000C7
(049.973930) slcan0 1401557F#67030000000000DE
(050.004173) slcan0 1401557D#E2020000000000C8
(050.997714) slcan0 1401557F#68030000000000DF
(051.001148) slcan0 1401557D#E3020000000000C9
(051.919181) slcan0 1401557F#69030000000000C0
(051.997121) slcan0 1401557D#E4020000000000CA
(052.738744) slcan0 1401557E#01000000080000C0
(052.738859) slcan0 1E01FEFF#C1
(052.738956) slcan0 1E017FFE#F68E010000000881
(052.739401) slcan0 1E017FFE#0000000000000021
(052.739579) slcan0 1E017FFE#0000000000000001
(052.739682) slcan0 1E017FFE#0000000000000021
(052.739774) slcan0 1E017FFE#0000000000000001
(052.739944) slcan0 1E017FFE#0000000000000021
(052.840413) slcan0 1E017FFE#0041
(052.943153) slcan0 1401557F#6A030000000000C1
(052.994100) slcan0 1401557D#E5020000000000CB
(053.761960) slcan0 1401557E#02000000080000C1
(053.967112) slcan0 1401557F#6B030000000000C2
(053.990067) slcan0 1401557D#E6020000000000CC
(054.683969) slcan0 1401557E#03000000080000C2
(054.988033) slcan0 1401557D#E7020000000000CD
(054.991309) slcan0 1401557F#6C030000000000C3
(055.708060) slcan0 1401557E#04000000080000C3
(055.912734) slcan0 1401557F#6D030000000000C4
(055.983017) slcan0 1401557D#E8020000000000CE
(056.731939) slcan0 1401557E#05000000080000C4
(056.898380) slcan0 1401557F#6E030000000000C5
(056.979989) slcan0 1401557D#E9020000000000CF
(057.755924) slcan0 1401557E#06000000080000C5
(057.960719) slcan0 1401557F#6F030000000000C6
(057.975956) slcan0 1401557D#EA020000000000D0
(058.677932) slcan0 1401557E#07000000080000C6
(058.678055) slcan0 1428FDFE#99FE7E6E6F646580
(058.678430) slcan0 1428FDFE#2E62696E60
(058.679942) slcan0 10287EFD#00C0
(058.680263) slcan0 1401557D#EA020000180000D1
(058.680281) slcan0 103FFF7D#814E24626F6F749A
(058.680944) slcan0 103FFF7D#426567696E46693A
(058.680999) slcan0 103FFF7D#726D77617265551A
(058.681940) slcan0 103FFF7D#7064617465202D3A
(058.682004) slcan0 103FFF7D#3E204552524F521A
(058.682050) slcan0 103FFF7D#5F4F4B7A
(058.682064) slcan0 102DFEFD#CCFE6E6F64652E99
(058.682091) slcan0 102DFEFD#62696E79
(058.682327) slcan0 103FFF7D#B5D124626F6F749B
(058.683052) slcan0 103FFF7D#476574496E666F3B
(058.683072) slcan0 103FFF7D#207265717565731B
(058.683082) slcan0 103FFF7D#742073656E747B
(058.972939) slcan0 1401557D#EB020000180000D2
(058.981907) slcan0 102D7DFE#2FCC10B500000099
(058.982015) slcan0 102D7DFE#00000979
(058.982576) slcan0 1401557F#70030000000000C7
(058.982686) slcan0 142DFDFE#CCFE6E6F64652E80
(058.982780) slcan0 142DFDFE#62696E60
(058.984933) slcan0 103FFF7D#0C9624626F6F749C
(058.985298) slcan0 103FFF7D#476574496E666F3C
(058.985316) slcan0 103FFF7D#2073697A653D341C
(058.985326) slcan0 103FFF7D#363335322065723C
(058.985336) slcan0 103FFF7D#723D3020666C611C
(058.985345) slcan0 103FFF7D#67733D397C
(058.985354) slcan0 103FFF7D#338624626F6F749D
(058.985932) slcan0 103FFF7D#524F4D206572613D
(058.985991) slcan0 103FFF7D#736520737461721D
(058.986007) slcan0 103FFF7D#747D
(059.648184) slcan0 1401557E#08000000080000C7
(059.998904) slcan0 103FFF7D#4CA924626F6F749E
(059.999208) slcan0 103FFF7D#524F4D206572613E
(059.999244) slcan0 103FFF7D#736520646F6E655E
(059.999272) slcan0 1030FEFD#2DC800000000009A
(059.999909) slcan0 1030FEFD#6E6F64652E62693A
(060.000149) slcan0 1030FEFD#6E5A
(060.000177) slcan0 103FFF7D#FE5124626F6F749F
(060.000187) slcan0 103FFF7D#526561642072653F
(060.000197) slcan0 103FFF7D#717565737420731F
(060.000924) slcan0 103FFF7D#656E7420286F663F
(060.001899) slcan0 103FFF7D#667365743D30295F
(060.005640) slcan0 1401557F#71030000000000C8
(060.725597) slcan0 1401557E#09000000080000C8
(060.930329) slcan0 1401557F#72030000000000C9
(060.936880) slcan0 1401557D#EC020000180000D3
(060.994884) slcan0 103FFF7D#D09344626F6F7480
(060.995130) slcan0 103FFF7D#5265616420746920
(060.995147) slcan0 103FFF7D#6D656F757440
(061.737900) slcan0 1401557E#0A000000080000C9
(061.932829) slcan0 1401557D#ED020000000000D4
(061.950978) slcan0 1401557F#73030000000000CA
(062.670895) slcan0 1401557E#0B000000080000CA
(062.929802) slcan0 1401557D#EE020000000000D5
(062.978016) slcan0 1401557F#74030000000000CB
(063.695332) slcan0 1401557E#0C000000080000CB
(063.925777) slcan0 1401557D#EF020000000000D6
(064.002049) slcan0 1401557F#75030000000000CC
(064.718965) slcan0 1401557E#0D000000080000CC
(064.922748) slcan0 1401557D#F0020000000000D7
(064.923447) slcan0 1401557F#76030000000000CD
(065.742881) slcan0 1401557E#0E000000080000CD
(065.919715) slcan0 1401557D#F1020000000000D8
(065.944584) slcan0 1401557F#77030000000000CE
(066.767143) slcan0 1401557E#0F000000080000CE
(066.915723) slcan0 1401557D#F2020000000000D9
(066.971932) slcan0 1401557F#78030000000000CF
(067.688798) slcan0 1401557E#10000000080000CF
(067.911697) slcan0 1401557D#F3020000000000DA
(067.995956) slcan0 1401557F#79030000000000D0
(068.712743) slcan0 1401557E#11000000080000D0
(068.908668) slcan0 1401557D#F4020000000000DB
(068.914422) slcan0 1401557F#7A030000000000D1
(069.736819) slcan0 1401557E#12000000080000D1
(069.904644) slcan0 1401557D#F5020000000000DC
(069.938429) slcan0 1401557F#7B030000000000D2
(070.901630) slcan0 1401557D#F6020000000000DD
(070.965533) slcan0 1401557F#7C030000000000D3
(071.897595) slcan0 1401557D#F7020000000000DE
(071.903175) slcan0 1401557F#7D030000000000D4
(072.835187) slcan0 1401557E#01000000080000C0
(072.835340) slcan0 1E01FEFF#C2
(072.835485) slcan0 1E017FFE#F68E010000000882
(072.835582) slcan0 1E017FFE#0000000000000022
(072.835674) slcan0 1E017FFE#0000000000000002
(072.835764) slcan0 1E017FFE#0000000000000022
(072.835857) slcan0 1E017FFE#0000000000000002
(072.835947) slcan0 1E017FFE#0000000000000022
(072.836035) slcan0 1E017FFE#0042
(072.894559) slcan0 1401557D#F8020000000000DF
(073.013515) slcan0 1401557F#7E030000000000D5
(073.890559) slcan0 1401557D#F9020000000000C0
(073.935347) slcan0 1401557E#02000000080000C1
(073.935461) slcan0 1401557F#7F030000000000D6
(074.856769) slcan0 1401557E#03000000080000C2
(074.887508) slcan0 1401557D#FA020000000000C1
(074.959514) slcan0 1401557F#80030000000000D7
(075.880907) slcan0 1401557E#04000000080000C3
(075.883479) slcan0 1401557D#FB020000000000C2
(075.983388) slcan0 1401557F#81030000000000D8
(076.880467) slcan0 1401557D#FC020000000000C3
(076.901615) slcan0 1401557E#05000000080000C4
(077.007092) slcan0 1401557F#82030000000000D9
(077.876437) slcan0 1401557D#FD020000000000C4
(077.928924) slcan0 1401557E#06000000080000C5
(077.929047) slcan0 1401557F#83030000000000DA
(078.850217) slcan0 1401557E#07000000080000C6
(078.873374) slcan0 1401557D#FE020000000000C5
(078.952554) slcan0 1428FDFE#99FE7E6E6F646580
(078.952612) slcan0 1428FDFE#2E62696E60
(078.952651) slcan0 1401557F#84030000000000DB
(078.954373) slcan0 10287EFD#00C0
(078.954449) slcan0 1401557D#FE020000180000C6
(078.955374) slcan0 103FFF7D#814E24626F6F7481
(078.955387) slcan0 103FFF7D#426567696E466921
(078.955441) slcan0 103FFF7D#726D776172655501
(078.955493) slcan0 103FFF7D#7064617465202D21
(078.955581) slcan0 103FFF7D#3E204552524F5201
(078.956375) slcan0 103FFF7D#5F4F4B61
(078.956386) slcan0 102DFEFD#CCFE6E6F64652E9B
(078.956440) slcan0 102DFEFD#62696E7B
(078.956493) slcan0 103FFF7D#B5D124626F6F7482
(078.957372) slcan0 103FFF7D#476574496E666F22
(078.958373) slcan0 103FFF7D#2072657175657302
(078.958411) slcan0 103FFF7D#742073656E7462
(079.259487) slcan0 102D7DFE#2FCC10B50000009B
(079.259545) slcan0 102D7DFE#0000097B
(079.259583) slcan0 142DFDFE#CCFE6E6F64652E80
(079.259619) slcan0 142DFDFE#62696E60
(079.261367) slcan0 103FFF7D#0C9624626F6F7483
(079.261440) slcan0 103FFF7D#476574496E666F23
(079.261600) slcan0 103FFF7D#2073697A653D3403
(079.262367) slcan0 103FFF7D#3633353220657223
(079.262535) slcan0 103FFF7D#723D3020666C6103
(079.262544) slcan0 103FFF7D#67733D3963
(079.262548) slcan0 103FFF7D#338624626F6F7484
(079.263366) slcan0 103FFF7D#524F4D2065726124
(079.264363) slcan0 103FFF7D#7365207374617204
(079.264374) slcan0 103FFF7D#7464
(079.874116) slcan0 1401557E#08000000080000C7
(079.976399) slcan0 1401557F#85030000000000DC
(080.276339) slcan0 103FFF7D#4CA924626F6F7485
(080.276406) slcan0 103FFF7D#524F4D2065726125
(080.276411) slcan0 103FFF7D#736520646F6E6545
(080.276523) slcan0 1030FEFD#2DC800000000009C
(080.277342) slcan0 1030FEFD#6E6F64652E62693C
(080.277354) slcan0 1030FEFD#6E5C
(080.277405) slcan0 103FFF7D#FE5124626F6F7486
(080.277458) slcan0 103FFF7D#5265616420726526
(080.279339) slcan0 103FFF7D#7175657374207306
(080.279524) slcan0 103FFF7D#656E7420286F6626
(080.279540) slcan0 103FFF7D#667365743D302946
(080.591333) slcan0 10307DFE#C94300000050009C
(080.591421) slcan0 10307DFE#20F5EE00088DCA3C
(080.591460) slcan0 10307DFE#000891CA0008951C
(080.591495) slcan0 10307DFE#CA000899CA00083C
(080.591554) slcan0 10307DFE#9DCA00080000001C
(080.591590) slcan0 10307DFE#000000000000003C
(080.591625) slcan0 10307DFE#000000000000A11C
(080.693768) slcan0 10307DFE#CA0008A5CA00083C
(080.693874) slcan0 10307DFE#00000000A9CA001C
(080.693948) slcan0 10307DFE#08ADCA00083DEF3C
(080.694061) slcan0 10307DFE#EF00083DEF00083C
(080.694103) slcan0 10307DFE#3DEF00083DEF001C
(080.694137) slcan0 10307DFE#083DEF00083DEF3C
(080.694170) slcan0 10307DFE#00083DEF00083D1C
(080.837327) slcan0 1401557D#FF020000180000C7
(081.102980) slcan0 1401557F#86030000000000DD
(081.272318) slcan0 103FFF7D#D09344626F6F7487
(081.273313) slcan0 103FFF7D#5265616420746927
(081.273350) slcan0 103FFF7D#6D656F757447
(081.833299) slcan0 1401557D#00030000000000C8
(081.922359) slcan0 1401557E#0A000000080000C9
(081.922414) slcan0 1401557F#87030000000000DE
(082.830285) slcan0 1401557D#01030000000000C9
(082.946340) slcan0 1401557F#88030000000000DF
(083.826280) slcan0 1401557D#02030000000000CA
(084.823277) slcan0 1401557D#03030000000000CB
(084.994333) slcan0 1401557F#8A030000000000C1
(085.819263) slcan0 1401557D#04030000000000CC
(085.916144) slcan0 1401557F#8B030000000000C2
(086.816208) slcan0 1401557D#05030000000000CD
(086.939929) slcan0 1401557F#8C030000000000C3
(087.812173) slcan0 1401557D#06030000000000CE
(087.963888) slcan0 1401557F#8D030000000000C4
(088.809151) slcan0 1401557D#07030000000000CF
(088.987825) slcan0 1401557F#8E030000000000C5
